<Qucs Dataset 25.2.0>
<indep frequency 200>
1.000000000000e+05
1.030150753769e+05
1.060301507538e+05
1.090452261307e+05
1.120603015075e+05
1.150753768844e+05
1.180904522613e+05
1.211055276382e+05
1.241206030151e+05
1.271356783920e+05
1.301507537688e+05
1.331658291457e+05
1.361809045226e+05
1.391959798995e+05
1.422110552764e+05
1.452261306533e+05
1.482412060302e+05
1.512562814070e+05
1.542713567839e+05
1.572864321608e+05
1.603015075377e+05
1.633165829146e+05
1.663316582915e+05
1.693467336683e+05
1.723618090452e+05
1.753768844221e+05
1.783919597990e+05
1.814070351759e+05
1.844221105528e+05
1.874371859296e+05
1.904522613065e+05
1.934673366834e+05
1.964824120603e+05
1.994974874372e+05
2.025125628141e+05
2.055276381910e+05
2.085427135678e+05
2.115577889447e+05
2.145728643216e+05
2.175879396985e+05
2.206030150754e+05
2.236180904523e+05
2.266331658291e+05
2.296482412060e+05
2.326633165829e+05
2.356783919598e+05
2.386934673367e+05
2.417085427136e+05
2.447236180905e+05
2.477386934673e+05
2.507537688442e+05
2.537688442211e+05
2.567839195980e+05
2.597989949749e+05
2.628140703518e+05
2.658291457286e+05
2.688442211055e+05
2.718592964824e+05
2.748743718593e+05
2.778894472362e+05
2.809045226131e+05
2.839195979900e+05
2.869346733668e+05
2.899497487437e+05
2.929648241206e+05
2.959798994975e+05
2.989949748744e+05
3.020100502513e+05
3.050251256281e+05
3.080402010050e+05
3.110552763819e+05
3.140703517588e+05
3.170854271357e+05
3.201005025126e+05
3.231155778894e+05
3.261306532663e+05
3.291457286432e+05
3.321608040201e+05
3.351758793970e+05
3.381909547739e+05
3.412060301508e+05
3.442211055276e+05
3.472361809045e+05
3.502512562814e+05
3.532663316583e+05
3.562814070352e+05
3.592964824121e+05
3.623115577889e+05
3.653266331658e+05
3.683417085427e+05
3.713567839196e+05
3.743718592965e+05
3.773869346734e+05
3.804020100503e+05
3.834170854271e+05
3.864321608040e+05
3.894472361809e+05
3.924623115578e+05
3.954773869347e+05
3.984924623116e+05
4.015075376884e+05
4.045226130653e+05
4.075376884422e+05
4.105527638191e+05
4.135678391960e+05
4.165829145729e+05
4.195979899497e+05
4.226130653266e+05
4.256281407035e+05
4.286432160804e+05
4.316582914573e+05
4.346733668342e+05
4.376884422111e+05
4.407035175879e+05
4.437185929648e+05
4.467336683417e+05
4.497487437186e+05
4.527638190955e+05
4.557788944724e+05
4.587939698492e+05
4.618090452261e+05
4.648241206030e+05
4.678391959799e+05
4.708542713568e+05
4.738693467337e+05
4.768844221106e+05
4.798994974874e+05
4.829145728643e+05
4.859296482412e+05
4.889447236181e+05
4.919597989950e+05
4.949748743719e+05
4.979899497487e+05
5.010050251256e+05
5.040201005025e+05
5.070351758794e+05
5.100502512563e+05
5.130653266332e+05
5.160804020101e+05
5.190954773869e+05
5.221105527638e+05
5.251256281407e+05
5.281407035176e+05
5.311557788945e+05
5.341708542714e+05
5.371859296482e+05
5.402010050251e+05
5.432160804020e+05
5.462311557789e+05
5.492462311558e+05
5.522613065327e+05
5.552763819095e+05
5.582914572864e+05
5.613065326633e+05
5.643216080402e+05
5.673366834171e+05
5.703517587940e+05
5.733668341709e+05
5.763819095477e+05
5.793969849246e+05
5.824120603015e+05
5.854271356784e+05
5.884422110553e+05
5.914572864322e+05
5.944723618090e+05
5.974874371859e+05
6.005025125628e+05
6.035175879397e+05
6.065326633166e+05
6.095477386935e+05
6.125628140704e+05
6.155778894472e+05
6.185929648241e+05
6.216080402010e+05
6.246231155779e+05
6.276381909548e+05
6.306532663317e+05
6.336683417085e+05
6.366834170854e+05
6.396984924623e+05
6.427135678392e+05
6.457286432161e+05
6.487437185930e+05
6.517587939699e+05
6.547738693467e+05
6.577889447236e+05
6.608040201005e+05
6.638190954774e+05
6.668341708543e+05
6.698492462312e+05
6.728643216080e+05
6.758793969849e+05
6.788944723618e+05
6.819095477387e+05
6.849246231156e+05
6.879396984925e+05
6.909547738693e+05
6.939698492462e+05
6.969849246231e+05
7.000000000000e+05
</indep>
<dep ac.v(in) frequency>
1.000000000000e+00+j0.000000000000e+00
1.000000000000e+00+j0.000000000000e+00
1.000000000000e+00+j0.000000000000e+00
1.000000000000e+00+j0.000000000000e+00
1.000000000000e+00+j0.000000000000e+00
1.000000000000e+00+j0.000000000000e+00
1.000000000000e+00+j0.000000000000e+00
1.000000000000e+00+j0.000000000000e+00
1.000000000000e+00+j0.000000000000e+00
1.000000000000e+00+j0.000000000000e+00
1.000000000000e+00+j0.000000000000e+00
1.000000000000e+00+j0.000000000000e+00
1.000000000000e+00+j0.000000000000e+00
1.000000000000e+00+j0.000000000000e+00
1.000000000000e+00+j0.000000000000e+00
1.000000000000e+00+j0.000000000000e+00
1.000000000000e+00+j0.000000000000e+00
1.000000000000e+00+j0.000000000000e+00
1.000000000000e+00+j0.000000000000e+00
1.000000000000e+00+j0.000000000000e+00
1.000000000000e+00+j0.000000000000e+00
1.000000000000e+00+j0.000000000000e+00
1.000000000000e+00+j0.000000000000e+00
1.000000000000e+00+j0.000000000000e+00
1.000000000000e+00+j0.000000000000e+00
1.000000000000e+00+j0.000000000000e+00
1.000000000000e+00+j0.000000000000e+00
1.000000000000e+00+j0.000000000000e+00
1.000000000000e+00+j0.000000000000e+00
1.000000000000e+00+j0.000000000000e+00
1.000000000000e+00+j0.000000000000e+00
1.000000000000e+00+j0.000000000000e+00
1.000000000000e+00+j0.000000000000e+00
1.000000000000e+00+j0.000000000000e+00
1.000000000000e+00+j0.000000000000e+00
1.000000000000e+00+j0.000000000000e+00
1.000000000000e+00+j0.000000000000e+00
1.000000000000e+00+j0.000000000000e+00
1.000000000000e+00+j0.000000000000e+00
1.000000000000e+00+j0.000000000000e+00
1.000000000000e+00+j0.000000000000e+00
1.000000000000e+00+j0.000000000000e+00
1.000000000000e+00+j0.000000000000e+00
1.000000000000e+00+j0.000000000000e+00
1.000000000000e+00+j0.000000000000e+00
1.000000000000e+00+j0.000000000000e+00
1.000000000000e+00+j0.000000000000e+00
1.000000000000e+00+j0.000000000000e+00
1.000000000000e+00+j0.000000000000e+00
1.000000000000e+00+j0.000000000000e+00
1.000000000000e+00+j0.000000000000e+00
1.000000000000e+00+j0.000000000000e+00
1.000000000000e+00+j0.000000000000e+00
1.000000000000e+00+j0.000000000000e+00
1.000000000000e+00+j0.000000000000e+00
1.000000000000e+00+j0.000000000000e+00
1.000000000000e+00+j0.000000000000e+00
1.000000000000e+00+j0.000000000000e+00
1.000000000000e+00+j0.000000000000e+00
1.000000000000e+00+j0.000000000000e+00
1.000000000000e+00+j0.000000000000e+00
1.000000000000e+00+j0.000000000000e+00
1.000000000000e+00+j0.000000000000e+00
1.000000000000e+00+j0.000000000000e+00
1.000000000000e+00+j0.000000000000e+00
1.000000000000e+00+j0.000000000000e+00
1.000000000000e+00+j0.000000000000e+00
1.000000000000e+00+j0.000000000000e+00
1.000000000000e+00+j0.000000000000e+00
1.000000000000e+00+j0.000000000000e+00
1.000000000000e+00+j0.000000000000e+00
1.000000000000e+00+j0.000000000000e+00
1.000000000000e+00+j0.000000000000e+00
1.000000000000e+00+j0.000000000000e+00
1.000000000000e+00+j0.000000000000e+00
1.000000000000e+00+j0.000000000000e+00
1.000000000000e+00+j0.000000000000e+00
1.000000000000e+00+j0.000000000000e+00
1.000000000000e+00+j0.000000000000e+00
1.000000000000e+00+j0.000000000000e+00
1.000000000000e+00+j0.000000000000e+00
1.000000000000e+00+j0.000000000000e+00
1.000000000000e+00+j0.000000000000e+00
1.000000000000e+00+j0.000000000000e+00
1.000000000000e+00+j0.000000000000e+00
1.000000000000e+00+j0.000000000000e+00
1.000000000000e+00+j0.000000000000e+00
1.000000000000e+00+j0.000000000000e+00
1.000000000000e+00+j0.000000000000e+00
1.000000000000e+00+j0.000000000000e+00
1.000000000000e+00+j0.000000000000e+00
1.000000000000e+00+j0.000000000000e+00
1.000000000000e+00+j0.000000000000e+00
1.000000000000e+00+j0.000000000000e+00
1.000000000000e+00+j0.000000000000e+00
1.000000000000e+00+j0.000000000000e+00
1.000000000000e+00+j0.000000000000e+00
1.000000000000e+00+j0.000000000000e+00
1.000000000000e+00+j0.000000000000e+00
1.000000000000e+00+j0.000000000000e+00
1.000000000000e+00+j0.000000000000e+00
1.000000000000e+00+j0.000000000000e+00
1.000000000000e+00+j0.000000000000e+00
1.000000000000e+00+j0.000000000000e+00
1.000000000000e+00+j0.000000000000e+00
1.000000000000e+00+j0.000000000000e+00
1.000000000000e+00+j0.000000000000e+00
1.000000000000e+00+j0.000000000000e+00
1.000000000000e+00+j0.000000000000e+00
1.000000000000e+00+j0.000000000000e+00
1.000000000000e+00+j0.000000000000e+00
1.000000000000e+00+j0.000000000000e+00
1.000000000000e+00+j0.000000000000e+00
1.000000000000e+00+j0.000000000000e+00
1.000000000000e+00+j0.000000000000e+00
1.000000000000e+00+j0.000000000000e+00
1.000000000000e+00+j0.000000000000e+00
1.000000000000e+00+j0.000000000000e+00
1.000000000000e+00+j0.000000000000e+00
1.000000000000e+00+j0.000000000000e+00
1.000000000000e+00+j0.000000000000e+00
1.000000000000e+00+j0.000000000000e+00
1.000000000000e+00+j0.000000000000e+00
1.000000000000e+00+j0.000000000000e+00
1.000000000000e+00+j0.000000000000e+00
1.000000000000e+00+j0.000000000000e+00
1.000000000000e+00+j0.000000000000e+00
1.000000000000e+00+j0.000000000000e+00
1.000000000000e+00+j0.000000000000e+00
1.000000000000e+00+j0.000000000000e+00
1.000000000000e+00+j0.000000000000e+00
1.000000000000e+00+j0.000000000000e+00
1.000000000000e+00+j0.000000000000e+00
1.000000000000e+00+j0.000000000000e+00
1.000000000000e+00+j0.000000000000e+00
1.000000000000e+00+j0.000000000000e+00
1.000000000000e+00+j0.000000000000e+00
1.000000000000e+00+j0.000000000000e+00
1.000000000000e+00+j0.000000000000e+00
1.000000000000e+00+j0.000000000000e+00
1.000000000000e+00+j0.000000000000e+00
1.000000000000e+00+j0.000000000000e+00
1.000000000000e+00+j0.000000000000e+00
1.000000000000e+00+j0.000000000000e+00
1.000000000000e+00+j0.000000000000e+00
1.000000000000e+00+j0.000000000000e+00
1.000000000000e+00+j0.000000000000e+00
1.000000000000e+00+j0.000000000000e+00
1.000000000000e+00+j0.000000000000e+00
1.000000000000e+00+j0.000000000000e+00
1.000000000000e+00+j0.000000000000e+00
1.000000000000e+00+j0.000000000000e+00
1.000000000000e+00+j0.000000000000e+00
1.000000000000e+00+j0.000000000000e+00
1.000000000000e+00+j0.000000000000e+00
1.000000000000e+00+j0.000000000000e+00
1.000000000000e+00+j0.000000000000e+00
1.000000000000e+00+j0.000000000000e+00
1.000000000000e+00+j0.000000000000e+00
1.000000000000e+00+j0.000000000000e+00
1.000000000000e+00+j0.000000000000e+00
1.000000000000e+00+j0.000000000000e+00
1.000000000000e+00+j0.000000000000e+00
1.000000000000e+00+j0.000000000000e+00
1.000000000000e+00+j0.000000000000e+00
1.000000000000e+00+j0.000000000000e+00
1.000000000000e+00+j0.000000000000e+00
1.000000000000e+00+j0.000000000000e+00
1.000000000000e+00+j0.000000000000e+00
1.000000000000e+00+j0.000000000000e+00
1.000000000000e+00+j0.000000000000e+00
1.000000000000e+00+j0.000000000000e+00
1.000000000000e+00+j0.000000000000e+00
1.000000000000e+00+j0.000000000000e+00
1.000000000000e+00+j0.000000000000e+00
1.000000000000e+00+j0.000000000000e+00
1.000000000000e+00+j0.000000000000e+00
1.000000000000e+00+j0.000000000000e+00
1.000000000000e+00+j0.000000000000e+00
1.000000000000e+00+j0.000000000000e+00
1.000000000000e+00+j0.000000000000e+00
1.000000000000e+00+j0.000000000000e+00
1.000000000000e+00+j0.000000000000e+00
1.000000000000e+00+j0.000000000000e+00
1.000000000000e+00+j0.000000000000e+00
1.000000000000e+00+j0.000000000000e+00
1.000000000000e+00+j0.000000000000e+00
1.000000000000e+00+j0.000000000000e+00
1.000000000000e+00+j0.000000000000e+00
1.000000000000e+00+j0.000000000000e+00
1.000000000000e+00+j0.000000000000e+00
1.000000000000e+00+j0.000000000000e+00
1.000000000000e+00+j0.000000000000e+00
1.000000000000e+00+j0.000000000000e+00
1.000000000000e+00+j0.000000000000e+00
1.000000000000e+00+j0.000000000000e+00
1.000000000000e+00+j0.000000000000e+00
1.000000000000e+00+j0.000000000000e+00
1.000000000000e+00+j0.000000000000e+00
1.000000000000e+00+j0.000000000000e+00
</dep>
<dep ac.zin frequency>
-1.777846366508e+02+j4.517147578521e+01
-1.765840284428e+02+j4.609622828305e+01
-1.753645870238e+02+j4.698832965516e+01
-1.741274234231e+02+j4.784760598974e+01
-1.728736388606e+02+j4.867392685492e+01
-1.716043229413e+02+j4.946720404159e+01
-1.703205519593e+02+j5.022739023632e+01
-1.690233873125e+02+j5.095447763349e+01
-1.677138740295e+02+j5.164849649492e+01
-1.663930394073e+02+j5.230951366569e+01
-1.650618917619e+02+j5.293763105400e+01
-1.637214192880e+02+j5.353298408315e+01
-1.623725890283e+02+j5.409574012297e+01
-1.610163459492e+02+j5.462609690796e+01
-1.596536121214e+02+j5.512428094879e+01
-1.582852860019e+02+j5.559054594363e+01
-1.569122418147e+02+j5.602517119525e+01
-1.555353290264e+02+j5.642846003935e+01
-1.541553719141e+02+j5.680073828935e+01
-1.527731692200e+02+j5.714235270225e+01
-1.513894938906e+02+j5.745366946991e+01
-1.500050928950e+02+j5.773507273955e+01
-1.486206871184e+02+j5.798696316702e+01
-1.472369713279e+02+j5.820975650570e+01
-1.458546142031e+02+j5.840388223407e+01
-1.444742584313e+02+j5.856978222386e+01
-1.430965208592e+02+j5.870790945101e+01
-1.417219926997e+02+j5.881872675107e+01
-1.403512397880e+02+j5.890270562010e+01
-1.389848028837e+02+j5.896032506246e+01
-1.376231980144e+02+j5.899207048586e+01
-1.362669168571e+02+j5.899843264441e+01
-1.349164271546e+02+j5.897990662974e+01
-1.335721731612e+02+j5.893699091035e+01
-1.322345761168e+02+j5.887018641877e+01
-1.309040347433e+02+j5.877999568644e+01
-1.295809257635e+02+j5.866692202552e+01
-1.282656044360e+02+j5.853146875707e+01
-1.269584051059e+02+j5.837413848476e+01
-1.256596417675e+02+j5.819543241307e+01
-1.243696086363e+02+j5.799584970910e+01
-1.230885807287e+02+j5.777588690664e+01
-1.218168144469e+02+j5.753603735156e+01
-1.205545481665e+02+j5.727679068695e+01
-1.193020028255e+02+j5.699863237691e+01
-1.180593825127e+02+j5.670204326753e+01
-1.168268750542e+02+j5.638749918371e+01
-1.156046525959e+02+j5.605547056035e+01
-1.143928721813e+02+j5.570642210655e+01
-1.131916763230e+02+j5.534081250133e+01
-1.120011935673e+02+j5.495909411954e+01
-1.108215390499e+02+j5.456171278639e+01
-1.096528150433e+02+j5.414910755939e+01
-1.084951114937e+02+j5.372171053610e+01
-1.073485065476e+02+j5.327994668657e+01
-1.062130670675e+02+j5.282423370892e+01
-1.050888491359e+02+j5.235498190689e+01
-1.039758985467e+02+j5.187259408802e+01
-1.028742512851e+02+j5.137746548134e+01
-1.017839339942e+02+j5.086998367324e+01
-1.007049644294e+02+j5.035052856039e+01
-9.963735189870e+01+j4.981947231871e+01
-9.858109769123e+01+j4.927717938717e+01
-9.753619549150e+01+j4.872400646550e+01
-9.650263178108e+01+j4.816030252470e+01
-9.548038622686e+01+j4.758640882955e+01
-9.446943205642e+01+j4.700265897205e+01
-9.346973642025e+01+j4.640937891512e+01
-9.248126074127e+01+j4.580688704549e+01
-9.150396105155e+01+j4.519549423521e+01
-9.053778831664e+01+j4.457550391095e+01
-8.958268874755e+01+j4.394721213037e+01
-8.863860410060e+01+j4.331090766487e+01
-8.770547196555e+01+j4.266687208820e+01
-8.678322604205e+01+j4.201537987017e+01
-8.587179640480e+01+j4.135669847507e+01
-8.497110975766e+01+j4.069108846414e+01
-8.408108967694e+01+j4.001880360159e+01
-8.320165684429e+01+j3.934009096385e+01
-8.233272926928e+01+j3.865519105145e+01
-8.147422250214e+01+j3.796433790318e+01
-8.062604983688e+01+j3.726775921218e+01
-7.978812250505e+01+j3.656567644355e+01
-7.896034986048e+01+j3.585830495322e+01
-7.814263955537e+01+j3.514585410766e+01
-7.733489770780e+01+j3.442852740429e+01
-7.653702906117e+01+j3.370652259218e+01
-7.574893713580e+01+j3.298003179290e+01
-7.497052437284e+01+j3.224924162130e+01
-7.420169227095e+01+j3.151433330587e+01
-7.344234151593e+01+j3.077548280871e+01
-7.269237210354e+01+j3.003286094478e+01
-7.195168345582e+01+j2.928663350027e+01
-7.122017453119e+01+j2.853696135007e+01
-7.049774392848e+01+j2.778400057409e+01
-6.978428998524e+01+j2.702790257237e+01
-6.907971087047e+01+j2.626881417882e+01
-6.838390467213e+01+j2.550687777365e+01
-6.769676947948e+01+j2.474223139414e+01
-6.701820346061e+01+j2.397500884393e+01
-6.634810493532e+01+j2.320533980066e+01
-6.568637244349e+01+j2.243334992187e+01
-6.503290480932e+01+j2.165916094916e+01
-6.438760120137e+01+j2.088289081060e+01
-6.375036118883e+01+j2.010465372123e+01
-6.312108479401e+01+j1.932456028182e+01
-6.249967254137e+01+j1.854271757563e+01
-6.188602550312e+01+j1.775922926339e+01
-6.128004534167e+01+j1.697419567628e+01
-6.068163434900e+01+j1.618771390710e+01
-6.009069548313e+01+j1.539987789940e+01
-5.950713240182e+01+j1.461077853481e+01
-5.893084949365e+01+j1.382050371842e+01
-5.836175190662e+01+j1.302913846222e+01
-5.779974557435e+01+j1.223676496671e+01
-5.724473724000e+01+j1.144346270058e+01
-5.669663447819e+01+j1.064930847856e+01
-5.615534571470e+01+j9.854376537454e+00
-5.562078024441e+01+j9.058738610235e+00
-5.509284824735e+01+j8.262463998471e+00
-5.457146080305e+01+j7.465619642888e+00
-5.405652990323e+01+j6.668270192201e+00
-5.354796846302e+01+j5.870478070210e+00
-5.304569033063e+01+j5.072303541198e+00
-5.254961029577e+01+j4.273804773641e+00
-5.205964409664e+01+j3.475037902278e+00
-5.157570842581e+01+j2.676057088558e+00
-5.109772093488e+01+j1.876914579495e+00
-5.062560023812e+01+j1.077660764963e+00
-5.015926591498e+01+j2.783442334645e-01
-4.969863851182e+01-j5.209881736066e-01
-4.924363954253e+01-j1.320291309169e+00
-4.879419148851e+01-j2.119521669097e+00
-4.835021779767e+01-j2.918637342269e+00
-4.791164288287e+01-j3.717597961998e+00
-4.747839211951e+01-j4.516364658805e+00
-4.705039184258e+01-j5.314900014509e+00
-4.662756934307e+01-j6.113168017605e+00
-4.620985286379e+01-j6.911134019896e+00
-4.579717159473e+01-j7.708764694349e+00
-4.538945566784e+01-j8.506027994155e+00
-4.498663615149e+01-j9.302893112947e+00
-4.458864504439e+01-j1.009933044616e+01
-4.419541526916e+01-j1.089531155352e+01
-4.380688066560e+01-j1.169080912257e+01
-4.342297598357e+01-j1.248579693330e+01
-4.304363687556e+01-j1.328024982377e+01
-4.266879988905e+01-j1.407414365677e+01
-4.229840245859e+01-j1.486745528742e+01
-4.193238289759e+01-j1.566016253171e+01
-4.157068039003e+01-j1.645224413603e+01
-4.121323498183e+01-j1.724367974754e+01
-4.085998757223e+01-j1.803444988541e+01
-4.051087990486e+01-j1.882453591295e+01
-4.016585455875e+01-j1.961392001057e+01
-3.982485493927e+01-j2.040258514949e+01
-3.948782526887e+01-j2.119051506631e+01
-3.915471057782e+01-j2.197769423824e+01
-3.882545669481e+01-j2.276410785921e+01
-3.850001023759e+01-j2.354974181657e+01
-3.817831860342e+01-j2.433458266855e+01
-3.786032995962e+01-j2.511861762240e+01
-3.754599323402e+01-j2.590183451316e+01
-3.723525810542e+01-j2.668422178314e+01
-3.692807499402e+01-j2.746576846190e+01
-3.662439505190e+01-j2.824646414698e+01
-3.632417015343e+01-j2.902629898513e+01
-3.602735288581e+01-j2.980526365407e+01
-3.573389653954e+01-j3.058334934497e+01
-3.544375509897e+01-j3.136054774527e+01
-3.515688323285e+01-j3.213685102215e+01
-3.487323628498e+01-j3.291225180646e+01
-3.459277026487e+01-j3.368674317718e+01
-3.431544183845e+01-j3.446031864628e+01
-3.404120831887e+01-j3.523297214416e+01
-3.377002765731e+01-j3.600469800540e+01
-3.350185843394e+01-j3.677549095507e+01
-3.323665984886e+01-j3.754534609541e+01
-3.297439171319e+01-j3.831425889290e+01
-3.271501444016e+01-j3.908222516578e+01
-3.245848903635e+01-j3.984924107193e+01
-3.220477709298e+01-j4.061530309709e+01
-3.195384077729e+01-j4.138040804352e+01
-3.170564282397e+01-j4.214455301898e+01
-3.146014652676e+01-j4.290773542600e+01
-3.121731573004e+01-j4.366995295156e+01
-3.097711482062e+01-j4.443120355706e+01
-3.073950871951e+01-j4.519148546861e+01
-3.050446287384e+01-j4.595079716759e+01
-3.027194324891e+01-j4.670913738155e+01
-3.004191632026e+01-j4.746650507537e+01
-2.981434906588e+01-j4.822289944271e+01
-2.958920895852e+01-j4.897831989771e+01
-2.936646395807e+01-j4.973276606696e+01
-2.914608250404e+01-j5.048623778173e+01
-2.892803350817e+01-j5.123873507044e+01
-2.871228634710e+01-j5.199025815134e+01
-2.849881085516e+01-j5.274080742547e+01
-2.828757731724e+01-j5.349038346981e+01
-2.807855646178e+01-j5.423898703062e+01
</dep>
